
T2B14 000:279 SEGGER J-Link V4.96d Log File (0000ms, 0261ms total)
T2B14 000:279 DLL Compiled: Jan 29 2015 11:45:37 (0000ms, 0261ms total)
T2B14 000:279 Logging started @ 2020-01-09 22:51 (0000ms, 0261ms total)
T2B14 000:279 JLINK_SetWarnOutHandler(...) (0000ms, 0261ms total)
T2B14 000:279 JLINK_OpenEx(...)
Firmware: J-Link ARM V8 compiled Nov 28 2014 13:44:46
Hardware: V8.00
S/N: 58001139
Feature(s): RDI,FlashDL,FlashBP,JFlash  returns O.K. (0260ms, 0521ms total)
T2B14 000:539 JLINK_SetErrorOutHandler(...) (0000ms, 0521ms total)
T2B14 000:539 JLINK_ExecCommand("ProjectFile = "F:\code\stm32_gsm_tcp\STM32F103C8T6_Demo_Pro2\STM32F103C8T6_Demo_Pro2\USER\JLinkSettings.ini"", ...)  returns 0x00 (0000ms, 0521ms total)
T2B14 000:543 JLINK_ExecCommand("Device = STM32F103C8", ...)Device "STM32F103C8" selected.  returns 0x00 (0003ms, 0524ms total)
T2B14 000:546 JLINK_ExecCommand("DisableConnectionTimeout", ...)  returns 0x01 (0000ms, 0524ms total)
T2B14 000:546 JLINK_GetHardwareVersion()  returns 0x13880 (0000ms, 0524ms total)
T2B14 000:546 JLINK_GetDLLVersion()  returns 49604 (0000ms, 0524ms total)
T2B14 000:546 JLINK_GetFirmwareString(...) (0000ms, 0524ms total)
T2B14 000:556 JLINK_GetDLLVersion()  returns 49604 (0000ms, 0524ms total)
T2B14 000:556 JLINK_GetCompileDateTime() (0000ms, 0524ms total)
T2B14 000:560 JLINK_GetFirmwareString(...) (0000ms, 0524ms total)
T2B14 000:561 JLINK_GetHardwareVersion()  returns 0x13880 (0000ms, 0524ms total)
T2B14 000:571 JLINK_TIF_Select(JLINKARM_TIF_JTAG)  returns 0x00 (0001ms, 0525ms total)
T2B14 000:572 JLINK_SetSpeed(3000) (0001ms, 0526ms total)
T2B14 000:573 JLINK_GetIdData(...) >0x2F8 JTAG>TotalIRLen = 9, IRPrint = 0x0011 >0x30 JTAG> >0x210 JTAG> >0x40 JTAG> >0x40 JTAG> >0x40 JTAG> >0x30 JTAG> >0x40 JTAG> >0x40 JTAG> >0x40 JTAG> >0x40 JTAG> >0x40 JTAG> >0x40 JTAG> >0x40 JTAG> >0x40 JTAG> >0x40 JTAG> >0x40 JTAG> >0x2F8 JTAG>TotalIRLen = 9, IRPrint = 0x0011 >0x30 JTAG> >0x210 JTAG> >0x70 JTAG> >0x40 JTAG> >0x40 JTAG> >0x40 JTAG> >0x50 JTAG> >0x80 JTAG> >0x40 JTAG> >0x30 JTAG> >0x40 JTAG> >0x40 JTAG> >0x30 JTAG> >0x40 JTAG> >0x50 JTAG>
Found Cortex-M3 r1p1, Little endian. -- CPU_WriteMem(4 bytes @ 0xE0002000) -- CPU_ReadMem(4 bytes @ 0xE000EDF0) -- CPU_WriteMem(4 bytes @ 0xE000EDF0) -- CPU_ReadMem(4 bytes @ 0xE0002000)FPUnit: 6 code (BP) slots and 2 literal slots -- CPU_ReadMem(4 bytes @ 0xE000EDFC) -- CPU_WriteMem(4 bytes @ 0xE000EDFC) -- CPU_ReadMem(4 bytes @ 0xE0001000) -- CPU_WriteMem(4 bytes @ 0xE0001000) -- CPU_ReadMem(4 bytes @ 0xE000ED88) -- CPU_WriteMem(4 bytes @ 0xE000ED88) -- CPU_ReadMem(4 bytes @ 0xE000ED88)
 -- CPU_WriteMem(4 bytes @ 0xE000ED88) -- CPU_ReadMem(4 bytes @ 0xE00FF010)TPIU fitted. -- CPU_ReadMem(4 bytes @ 0xE00FF014) -- CPU_ReadMem(4 bytes @ 0xE00FF018) ScanLen=9 NumDevices=2 aId[0]=0x3BA00477 aIrRead[0]=0 aScanLen[0]=0 aScanRead[0]=0 (0039ms, 0565ms total)
T2B14 000:612 JLINK_JTAG_GetDeviceID(DeviceIndex = 0)  returns 0x3BA00477 (0000ms, 0565ms total)
T2B14 000:612 JLINK_JTAG_GetDeviceInfo(DeviceIndex = 0)  returns 0x00 (0000ms, 0565ms total)
T2B14 000:612 JLINK_JTAG_GetDeviceID(DeviceIndex = 1)  returns 0x16410041 (0000ms, 0565ms total)
T2B14 000:612 JLINK_JTAG_GetDeviceInfo(DeviceIndex = 1)  returns 0x00 (0000ms, 0565ms total)
T2B14 000:612 JLINK_GetDLLVersion()  returns 49604 (0000ms, 0565ms total)
T2B14 000:612 JLINK_CORE_GetFound()  returns 0x30000FF (0000ms, 0565ms total)
T2B14 000:612 JLINK_GetDebugInfo(0x100) -- Value=0xE00FF003  returns 0x00 (0000ms, 0565ms total)
T2B14 000:616 JLINK_ReadMem (0xE00FF000, 0x0020 Bytes, ...) -- CPU is running -- CPU_ReadMem(32 bytes @ 0xE00FF000) - Data: 03 F0 F0 FF 03 20 F0 FF 03 30 F0 FF 03 10 F0 FF ...  returns 0x00 (0001ms, 0567ms total)
T2B14 000:617 JLINK_ReadMem (0xE000EFF0, 0x0010 Bytes, ...) -- CPU is running -- CPU_ReadMem(16 bytes @ 0xE000EFF0) - Data: 0D 00 00 00 E0 00 00 00 05 00 00 00 B1 00 00 00  returns 0x00 (0001ms, 0568ms total)
T2B14 000:618 JLINK_ReadMem (0xE000EFD0, 0x0020 Bytes, ...) -- CPU is running -- CPU_ReadMem(32 bytes @ 0xE000EFD0) - Data: 04 00 00 00 00 00 00 00 00 00 00 00 00 00 00 00 ...  returns 0x00 (0000ms, 0568ms total)
T2B14 000:618 JLINK_ReadMem (0xE0001FF0, 0x0010 Bytes, ...) -- CPU is running -- CPU_ReadMem(16 bytes @ 0xE0001FF0) - Data: 0D 00 00 00 E0 00 00 00 05 00 00 00 B1 00 00 00  returns 0x00 (0001ms, 0569ms total)
T2B14 000:619 JLINK_ReadMem (0xE0001FD0, 0x0020 Bytes, ...) -- CPU is running -- CPU_ReadMem(32 bytes @ 0xE0001FD0) - Data: 04 00 00 00 00 00 00 00 00 00 00 00 00 00 00 00 ...  returns 0x00 (0001ms, 0570ms total)
T2B14 000:620 JLINK_ReadMem (0xE0002FF0, 0x0010 Bytes, ...) -- CPU is running -- CPU_ReadMem(16 bytes @ 0xE0002FF0) - Data: 0D 00 00 00 E0 00 00 00 05 00 00 00 B1 00 00 00  returns 0x00 (0001ms, 0571ms total)
T2B14 000:621 JLINK_ReadMem (0xE0002FD0, 0x0020 Bytes, ...) -- CPU is running -- CPU_ReadMem(32 bytes @ 0xE0002FD0) - Data: 04 00 00 00 00 00 00 00 00 00 00 00 00 00 00 00 ...  returns 0x00 (0001ms, 0572ms total)
T2B14 000:622 JLINK_ReadMem (0xE0000FF0, 0x0010 Bytes, ...) -- CPU is running -- CPU_ReadMem(16 bytes @ 0xE0000FF0) - Data: 0D 00 00 00 E0 00 00 00 05 00 00 00 B1 00 00 00  returns 0x00 (0000ms, 0572ms total)
T2B14 000:622 JLINK_ReadMem (0xE0000FD0, 0x0020 Bytes, ...) -- CPU is running -- CPU_ReadMem(32 bytes @ 0xE0000FD0) - Data: 04 00 00 00 00 00 00 00 00 00 00 00 00 00 00 00 ...  returns 0x00 (0001ms, 0573ms total)
T2B14 000:623 JLINK_ReadMem (0xE0040FF0, 0x0010 Bytes, ...) -- CPU is running -- CPU_ReadMem(16 bytes @ 0xE0040FF0) - Data: 0D 00 00 00 90 00 00 00 05 00 00 00 B1 00 00 00  returns 0x00 (0001ms, 0574ms total)
T2B14 000:624 JLINK_ReadMem (0xE0040FD0, 0x0020 Bytes, ...) -- CPU is running -- CPU_ReadMem(32 bytes @ 0xE0040FD0) - Data: 04 00 00 00 00 00 00 00 00 00 00 00 00 00 00 00 ...  returns 0x00 (0001ms, 0575ms total)
T2B14 000:625 JLINK_ReadMemU32(0xE000ED00, 0x0001 Items, ...) -- CPU is running -- CPU_ReadMem(4 bytes @ 0xE000ED00) - Data: 31 C2 1F 41  returns 0x01 (0000ms, 0575ms total)
T2B14 000:625 JLINK_SetResetType(JLINKARM_RESET_TYPE_NORMAL)  returns JLINKARM_RESET_TYPE_NORMAL (0000ms, 0575ms total)
T2B14 000:625 JLINK_Reset() -- CPU is running -- CPU_WriteMem(4 bytes @ 0xE000EDF0) -- CPU is running -- CPU_WriteMem(4 bytes @ 0xE000EDFC) -- CPU is running -- CPU_WriteMem(4 bytes @ 0xE000ED0C) -- CPU is running -- CPU_ReadMem(4 bytes @ 0xE000EDF0) -- CPU is running -- CPU_ReadMem(4 bytes @ 0xE000EDF0) -- CPU is running -- CPU_WriteMem(4 bytes @ 0xE000EDF0) -- CPU is running -- CPU_WriteMem(4 bytes @ 0xE000EDFC) -- CPU is running -- CPU_ReadMem(4 bytes @ 0xE000EDF0) >0x80 JTAG> >0x40 JTAG> >0x30 JTAG>
 >0x40 JTAG> >0x50 JTAG> >0x40 JTAG> -- CPU_WriteMem(4 bytes @ 0xE000EDFC) -- CPU_WriteMem(4 bytes @ 0xE0001028) -- CPU_WriteMem(4 bytes @ 0xE0001038) -- CPU_WriteMem(4 bytes @ 0xE0001048) -- CPU_WriteMem(4 bytes @ 0xE0001058) -- CPU_WriteMem(4 bytes @ 0xE0002000) -- CPU_ReadMem(4 bytes @ 0xE000EDFC) -- CPU_ReadMem(4 bytes @ 0xE0001000) (0028ms, 0603ms total)
T2B14 000:653 JLINK_Halt()  returns 0x00 (0000ms, 0603ms total)
T2B14 000:653 JLINK_IsHalted()  returns TRUE (0000ms, 0603ms total)
T2B14 000:653 JLINK_ReadMemU32(0xE000EDF0, 0x0001 Items, ...) -- CPU_ReadMem(4 bytes @ 0xE000EDF0) - Data: 03 00 03 00  returns 0x01 (0000ms, 0603ms total)
T2B14 000:653 JLINK_WriteU32(0xE000EDF0, 0xA05F0003) -- CPU_WriteMem(4 bytes @ 0xE000EDF0)  returns 0x00 (0001ms, 0604ms total)
T2B14 000:654 JLINK_WriteU32(0xE000EDFC, 0x01000000) -- CPU_WriteMem(4 bytes @ 0xE000EDFC)  returns 0x00 (0000ms, 0604ms total)
T2B14 000:662 JLINK_GetHWStatus(...)  returns 0x00 (0001ms, 0605ms total)
T2B14 000:668 JLINK_GetNumBPUnits(Type = 0xFFFFFF00)  returns 0x06 (0000ms, 0605ms total)
T2B14 000:668 JLINK_GetNumBPUnits(Type = 0xF0)  returns 0x2000 (0000ms, 0605ms total)
T2B14 000:668 JLINK_GetNumWPUnits()  returns 0x04 (0000ms, 0605ms total)
T2B14 000:673 JLINK_GetSpeed()  returns 0xBB8 (0000ms, 0605ms total)
T2B14 000:676 JLINK_ReadMemU32(0xE000E004, 0x0001 Items, ...) -- CPU_ReadMem(4 bytes @ 0xE000E004) - Data: 01 00 00 00  returns 0x01 (0001ms, 0606ms total)
T2B14 000:677 JLINK_ReadMemU32(0xE000E004, 0x0001 Items, ...) -- CPU_ReadMem(4 bytes @ 0xE000E004) - Data: 01 00 00 00  returns 0x01 (0001ms, 0607ms total)
T2B14 000:678 JLINK_WriteMem(0xE0001000, 0x001C Bytes, ...) - Data: 01 00 00 00 00 00 00 00 00 00 00 00 00 00 00 00 ... -- CPU_WriteMem(28 bytes @ 0xE0001000)  returns 0x1C (0002ms, 0609ms total)
T2B14 000:680 JLINK_ReadMem (0xE0001000, 0x001C Bytes, ...) -- CPU_ReadMem(28 bytes @ 0xE0001000) - Data: 01 00 00 40 00 00 00 00 00 00 00 00 00 00 00 00 ...  returns 0x00 (0001ms, 0610ms total)
T2B14 000:681 JLINK_Halt()  returns 0x00 (0000ms, 0610ms total)
T2B14 000:681 JLINK_IsHalted()  returns TRUE (0000ms, 0610ms total)
T2B14 000:684 JLINK_WriteMem(0x20000000, 0x0164 Bytes, ...) - Data: 00 BE 0A E0 0D 78 2D 06 68 40 08 24 40 00 00 D3 ... -- CPU_WriteMem(356 bytes @ 0x20000000)  returns 0x164 (0005ms, 0615ms total)
T2B14 000:689 JLINK_WriteReg(R0, 0x08000000)  returns 0x00 (0000ms, 0615ms total)
T2B14 000:689 JLINK_WriteReg(R1, 0x00B71B00)  returns 0x00 (0000ms, 0615ms total)
T2B14 000:689 JLINK_WriteReg(R2, 0x00000001)  returns 0x00 (0000ms, 0615ms total)
T2B14 000:689 JLINK_WriteReg(R3, 0x00000000)  returns 0x00 (0000ms, 0615ms total)
T2B14 000:689 JLINK_WriteReg(R4, 0x00000000)  returns 0x00 (0000ms, 0615ms total)
T2B14 000:689 JLINK_WriteReg(R5, 0x00000000)  returns 0x00 (0000ms, 0615ms total)
T2B14 000:689 JLINK_WriteReg(R6, 0x00000000)  returns 0x00 (0000ms, 0615ms total)
T2B14 000:689 JLINK_WriteReg(R7, 0x00000000)  returns 0x00 (0000ms, 0615ms total)
T2B14 000:689 JLINK_WriteReg(R8, 0x00000000)  returns 0x00 (0000ms, 0615ms total)
T2B14 000:689 JLINK_WriteReg(R9, 0x20000160)  returns 0x00 (0000ms, 0615ms total)
T2B14 000:689 JLINK_WriteReg(R10, 0x00000000)  returns 0x00 (0000ms, 0615ms total)
T2B14 000:689 JLINK_WriteReg(R11, 0x00000000)  returns 0x00 (0000ms, 0615ms total)
T2B14 000:689 JLINK_WriteReg(R12, 0x00000000)  returns 0x00 (0000ms, 0615ms total)
T2B14 000:689 JLINK_WriteReg(R13 (SP), 0x20001000)  returns 0x00 (0000ms, 0615ms total)
T2B14 000:689 JLINK_WriteReg(R14, 0x20000001)  returns 0x00 (0000ms, 0615ms total)
T2B14 000:689 JLINK_WriteReg(R15 (PC), 0x20000038)  returns 0x00 (0000ms, 0615ms total)
T2B14 000:689 JLINK_WriteReg(XPSR, 0x01000000)  returns 0x00 (0000ms, 0615ms total)
T2B14 000:689 JLINK_WriteReg(MSP, 0x20001000)  returns 0x00 (0000ms, 0615ms total)
T2B14 000:689 JLINK_WriteReg(PSP, 0x20001000)  returns 0x00 (0000ms, 0615ms total)
T2B14 000:689 JLINK_WriteReg(CFBP, 0x00000000)  returns 0x00 (0000ms, 0615ms total)
T2B14 000:689 JLINK_SetBPEx(Addr = 0x20000000, Type = 0xFFFFFFF2) -- CPU_ReadMem(2 bytes @ 0x20000000)  returns 0x00000001 (0001ms, 0616ms total)
T2B14 000:690 JLINK_Go() -- CPU_WriteMem(2 bytes @ 0x20000000) -- CPU_WriteMem(4 bytes @ 0xE0002008) -- CPU_WriteMem(4 bytes @ 0xE000200C) -- CPU_WriteMem(4 bytes @ 0xE0002010) -- CPU_WriteMem(4 bytes @ 0xE0002014) -- CPU_WriteMem(4 bytes @ 0xE0002018) -- CPU_WriteMem(4 bytes @ 0xE000201C) -- CPU_WriteMem(4 bytes @ 0xE0001004) (0006ms, 0622ms total)
T2B14 000:696 JLINK_IsHalted() -- CPU_ReadMem(2 bytes @ 0x20000000)  returns TRUE (0004ms, 0626ms total)
T2B14 000:700 JLINK_ReadReg(R15 (PC))  returns 0x20000000 (0000ms, 0622ms total)
T2B14 000:700 JLINK_ClrBPEx(BPHandle = 0x00000001)  returns 0x00 (0000ms, 0622ms total)
T2B14 000:700 JLINK_ReadReg(R0)  returns 0x00000000 (0000ms, 0622ms total)
T2B14 000:700 JLINK_WriteReg(R0, 0x08000000)  returns 0x00 (0000ms, 0622ms total)
T2B14 000:700 JLINK_WriteReg(R1, 0x00B71B00)  returns 0x00 (0000ms, 0622ms total)
T2B14 000:700 JLINK_WriteReg(R2, 0x00000001)  returns 0x00 (0000ms, 0622ms total)
T2B14 000:700 JLINK_WriteReg(R3, 0x00000000)  returns 0x00 (0000ms, 0622ms total)
T2B14 000:700 JLINK_WriteReg(R4, 0x00000000)  returns 0x00 (0000ms, 0622ms total)
T2B14 000:700 JLINK_WriteReg(R5, 0x00000000)  returns 0x00 (0000ms, 0622ms total)
T2B14 000:700 JLINK_WriteReg(R6, 0x00000000)  returns 0x00 (0000ms, 0622ms total)
T2B14 000:700 JLINK_WriteReg(R7, 0x00000000)  returns 0x00 (0000ms, 0622ms total)
T2B14 000:700 JLINK_WriteReg(R8, 0x00000000)  returns 0x00 (0000ms, 0622ms total)
T2B14 000:700 JLINK_WriteReg(R9, 0x20000160)  returns 0x00 (0000ms, 0622ms total)
T2B14 000:700 JLINK_WriteReg(R10, 0x00000000)  returns 0x00 (0000ms, 0622ms total)
T2B14 000:700 JLINK_WriteReg(R11, 0x00000000)  returns 0x00 (0000ms, 0622ms total)
T2B14 000:700 JLINK_WriteReg(R12, 0x00000000)  returns 0x00 (0000ms, 0622ms total)
T2B14 000:700 JLINK_WriteReg(R13 (SP), 0x20001000)  returns 0x00 (0000ms, 0622ms total)
T2B14 000:700 JLINK_WriteReg(R14, 0x20000001)  returns 0x00 (0000ms, 0622ms total)
T2B14 000:700 JLINK_WriteReg(R15 (PC), 0x2000007C)  returns 0x00 (0000ms, 0622ms total)
T2B14 000:700 JLINK_WriteReg(XPSR, 0x01000000)  returns 0x00 (0001ms, 0623ms total)
T2B14 000:701 JLINK_WriteReg(MSP, 0x20001000)  returns 0x00 (0000ms, 0623ms total)
T2B14 000:701 JLINK_WriteReg(PSP, 0x20001000)  returns 0x00 (0000ms, 0623ms total)
T2B14 000:701 JLINK_WriteReg(CFBP, 0x00000000)  returns 0x00 (0000ms, 0623ms total)
T2B14 000:701 JLINK_SetBPEx(Addr = 0x20000000, Type = 0xFFFFFFF2)  returns 0x00000002 (0000ms, 0623ms total)
T2B14 000:701 JLINK_Go() (0001ms, 0624ms total)
T2B14 000:702 JLINK_IsHalted()  returns FALSE (0000ms, 0624ms total)
T2B14 000:726 JLINK_IsHalted() -- CPU_ReadMem(2 bytes @ 0x20000000)  returns TRUE (0004ms, 0628ms total)
T2B14 000:730 JLINK_ReadReg(R15 (PC))  returns 0x20000000 (0000ms, 0624ms total)
T2B14 000:730 JLINK_ClrBPEx(BPHandle = 0x00000002)  returns 0x00 (0000ms, 0624ms total)
T2B14 000:730 JLINK_ReadReg(R0)  returns 0x00000000 (0000ms, 0624ms total)
T2B14 000:781 JLINK_WriteReg(R0, 0x00000001)  returns 0x00 (0000ms, 0624ms total)
T2B14 000:781 JLINK_WriteReg(R1, 0x00B71B00)  returns 0x00 (0000ms, 0624ms total)
T2B14 000:781 JLINK_WriteReg(R2, 0x00000001)  returns 0x00 (0000ms, 0624ms total)
T2B14 000:781 JLINK_WriteReg(R3, 0x00000000)  returns 0x00 (0000ms, 0624ms total)
T2B14 000:781 JLINK_WriteReg(R4, 0x00000000)  returns 0x00 (0000ms, 0624ms total)
T2B14 000:781 JLINK_WriteReg(R5, 0x00000000)  returns 0x00 (0000ms, 0624ms total)
T2B14 000:781 JLINK_WriteReg(R6, 0x00000000)  returns 0x00 (0000ms, 0624ms total)
T2B14 000:781 JLINK_WriteReg(R7, 0x00000000)  returns 0x00 (0000ms, 0624ms total)
T2B14 000:781 JLINK_WriteReg(R8, 0x00000000)  returns 0x00 (0000ms, 0624ms total)
T2B14 000:781 JLINK_WriteReg(R9, 0x20000160)  returns 0x00 (0000ms, 0624ms total)
T2B14 000:781 JLINK_WriteReg(R10, 0x00000000)  returns 0x00 (0000ms, 0624ms total)
T2B14 000:781 JLINK_WriteReg(R11, 0x00000000)  returns 0x00 (0000ms, 0624ms total)
T2B14 000:781 JLINK_WriteReg(R12, 0x00000000)  returns 0x00 (0000ms, 0624ms total)
T2B14 000:781 JLINK_WriteReg(R13 (SP), 0x20001000)  returns 0x00 (0000ms, 0624ms total)
T2B14 000:781 JLINK_WriteReg(R14, 0x20000001)  returns 0x00 (0000ms, 0624ms total)
T2B14 000:781 JLINK_WriteReg(R15 (PC), 0x2000006A)  returns 0x00 (0000ms, 0624ms total)
T2B14 000:781 JLINK_WriteReg(XPSR, 0x01000000)  returns 0x00 (0000ms, 0624ms total)
T2B14 000:781 JLINK_WriteReg(MSP, 0x20001000)  returns 0x00 (0000ms, 0624ms total)
T2B14 000:781 JLINK_WriteReg(PSP, 0x20001000)  returns 0x00 (0000ms, 0624ms total)
T2B14 000:781 JLINK_WriteReg(CFBP, 0x00000000)  returns 0x00 (0000ms, 0624ms total)
T2B14 000:781 JLINK_SetBPEx(Addr = 0x20000000, Type = 0xFFFFFFF2)  returns 0x00000003 (0000ms, 0624ms total)
T2B14 000:781 JLINK_Go() (0001ms, 0625ms total)
T2B14 000:782 JLINK_IsHalted() -- CPU_ReadMem(2 bytes @ 0x20000000)  returns TRUE (0005ms, 0630ms total)
T2B14 000:787 JLINK_ReadReg(R15 (PC))  returns 0x20000000 (0000ms, 0625ms total)
T2B14 000:787 JLINK_ClrBPEx(BPHandle = 0x00000003)  returns 0x00 (0000ms, 0625ms total)
T2B14 000:787 JLINK_ReadReg(R0)  returns 0x00000000 (0000ms, 0625ms total)
T2B14 000:790 JLINK_WriteMem(0x20000000, 0x0164 Bytes, ...) - Data: 00 BE 0A E0 0D 78 2D 06 68 40 08 24 40 00 00 D3 ... -- CPU_WriteMem(356 bytes @ 0x20000000)  returns 0x164 (0004ms, 0629ms total)
T2B14 000:794 JLINK_WriteReg(R0, 0x08000000)  returns 0x00 (0000ms, 0629ms total)
T2B14 000:794 JLINK_WriteReg(R1, 0x00B71B00)  returns 0x00 (0000ms, 0629ms total)
T2B14 000:794 JLINK_WriteReg(R2, 0x00000002)  returns 0x00 (0000ms, 0629ms total)
T2B14 000:794 JLINK_WriteReg(R3, 0x00000000)  returns 0x00 (0000ms, 0629ms total)
T2B14 000:794 JLINK_WriteReg(R4, 0x00000000)  returns 0x00 (0000ms, 0629ms total)
T2B14 000:794 JLINK_WriteReg(R5, 0x00000000)  returns 0x00 (0000ms, 0629ms total)
T2B14 000:794 JLINK_WriteReg(R6, 0x00000000)  returns 0x00 (0000ms, 0629ms total)
T2B14 000:794 JLINK_WriteReg(R7, 0x00000000)  returns 0x00 (0000ms, 0629ms total)
T2B14 000:794 JLINK_WriteReg(R8, 0x00000000)  returns 0x00 (0000ms, 0629ms total)
T2B14 000:794 JLINK_WriteReg(R9, 0x20000160)  returns 0x00 (0000ms, 0629ms total)
T2B14 000:794 JLINK_WriteReg(R10, 0x00000000)  returns 0x00 (0000ms, 0629ms total)
T2B14 000:794 JLINK_WriteReg(R11, 0x00000000)  returns 0x00 (0000ms, 0629ms total)
T2B14 000:794 JLINK_WriteReg(R12, 0x00000000)  returns 0x00 (0000ms, 0629ms total)
T2B14 000:794 JLINK_WriteReg(R13 (SP), 0x20001000)  returns 0x00 (0000ms, 0629ms total)
T2B14 000:794 JLINK_WriteReg(R14, 0x20000001)  returns 0x00 (0000ms, 0629ms total)
T2B14 000:794 JLINK_WriteReg(R15 (PC), 0x20000038)  returns 0x00 (0000ms, 0629ms total)
T2B14 000:794 JLINK_WriteReg(XPSR, 0x01000000)  returns 0x00 (0000ms, 0629ms total)
T2B14 000:794 JLINK_WriteReg(MSP, 0x20001000)  returns 0x00 (0000ms, 0629ms total)
T2B14 000:794 JLINK_WriteReg(PSP, 0x20001000)  returns 0x00 (0000ms, 0629ms total)
T2B14 000:794 JLINK_WriteReg(CFBP, 0x00000000)  returns 0x00 (0000ms, 0629ms total)
T2B14 000:794 JLINK_SetBPEx(Addr = 0x20000000, Type = 0xFFFFFFF2) -- CPU_ReadMem(2 bytes @ 0x20000000)  returns 0x00000004 (0001ms, 0630ms total)
T2B14 000:795 JLINK_Go() -- CPU_WriteMem(2 bytes @ 0x20000000) (0002ms, 0632ms total)
T2B14 000:797 JLINK_IsHalted() -- CPU_ReadMem(2 bytes @ 0x20000000)  returns TRUE (0005ms, 0637ms total)
T2B14 000:802 JLINK_ReadReg(R15 (PC))  returns 0x20000000 (0000ms, 0632ms total)
T2B14 000:802 JLINK_ClrBPEx(BPHandle = 0x00000004)  returns 0x00 (0000ms, 0632ms total)
T2B14 000:802 JLINK_ReadReg(R0)  returns 0x00000000 (0000ms, 0632ms total)
T2B14 000:802 JLINK_WriteMem(0x20000164, 0x0400 Bytes, ...) - Data: 58 1A 00 20 45 01 00 08 63 12 00 08 5B 12 00 08 ... -- CPU_WriteMem(1024 bytes @ 0x20000164)  returns 0x400 (0011ms, 0643ms total)
T2B14 000:813 JLINK_WriteReg(R0, 0x08000000)  returns 0x00 (0000ms, 0643ms total)
T2B14 000:813 JLINK_WriteReg(R1, 0x00000400)  returns 0x00 (0000ms, 0643ms total)
T2B14 000:813 JLINK_WriteReg(R2, 0x20000164)  returns 0x00 (0000ms, 0643ms total)
T2B14 000:813 JLINK_WriteReg(R3, 0x00000000)  returns 0x00 (0000ms, 0643ms total)
T2B14 000:813 JLINK_WriteReg(R4, 0x00000000)  returns 0x00 (0000ms, 0643ms total)
T2B14 000:813 JLINK_WriteReg(R5, 0x00000000)  returns 0x00 (0000ms, 0643ms total)
T2B14 000:813 JLINK_WriteReg(R6, 0x00000000)  returns 0x00 (0000ms, 0643ms total)
T2B14 000:813 JLINK_WriteReg(R7, 0x00000000)  returns 0x00 (0000ms, 0643ms total)
T2B14 000:813 JLINK_WriteReg(R8, 0x00000000)  returns 0x00 (0000ms, 0643ms total)
T2B14 000:813 JLINK_WriteReg(R9, 0x20000160)  returns 0x00 (0000ms, 0643ms total)
T2B14 000:813 JLINK_WriteReg(R10, 0x00000000)  returns 0x00 (0000ms, 0643ms total)
T2B14 000:813 JLINK_WriteReg(R11, 0x00000000)  returns 0x00 (0000ms, 0643ms total)
T2B14 000:813 JLINK_WriteReg(R12, 0x00000000)  returns 0x00 (0000ms, 0643ms total)
T2B14 000:813 JLINK_WriteReg(R13 (SP), 0x20001000)  returns 0x00 (0000ms, 0643ms total)
T2B14 000:813 JLINK_WriteReg(R14, 0x20000001)  returns 0x00 (0000ms, 0643ms total)
T2B14 000:813 JLINK_WriteReg(R15 (PC), 0x200000F4)  returns 0x00 (0000ms, 0643ms total)
T2B14 000:813 JLINK_WriteReg(XPSR, 0x01000000)  returns 0x00 (0000ms, 0643ms total)
T2B14 000:813 JLINK_WriteReg(MSP, 0x20001000)  returns 0x00 (0000ms, 0643ms total)
T2B14 000:813 JLINK_WriteReg(PSP, 0x20001000)  returns 0x00 (0000ms, 0643ms total)
T2B14 000:813 JLINK_WriteReg(CFBP, 0x00000000)  returns 0x00 (0000ms, 0643ms total)
T2B14 000:813 JLINK_SetBPEx(Addr = 0x20000000, Type = 0xFFFFFFF2)  returns 0x00000005 (0000ms, 0643ms total)
T2B14 000:813 JLINK_Go() (0002ms, 0645ms total)
T2B14 000:815 JLINK_IsHalted()  returns FALSE (0001ms, 0646ms total)
T2B14 000:827 JLINK_IsHalted()  returns FALSE (0001ms, 0646ms total)
T2B14 000:829 JLINK_IsHalted()  returns FALSE (0000ms, 0645ms total)
T2B14 000:830 JLINK_IsHalted()  returns FALSE (0001ms, 0646ms total)
T2B14 000:832 JLINK_IsHalted()  returns FALSE (0000ms, 0645ms total)
T2B14 000:833 JLINK_IsHalted()  returns FALSE (0001ms, 0646ms total)
T2B14 000:835 JLINK_IsHalted()  returns FALSE (0000ms, 0645ms total)
T2B14 000:836 JLINK_IsHalted()  returns FALSE (0001ms, 0646ms total)
T2B14 000:838 JLINK_IsHalted()  returns FALSE (0000ms, 0645ms total)
T2B14 000:839 JLINK_IsHalted()  returns FALSE (0001ms, 0646ms total)
T2B14 000:841 JLINK_IsHalted()  returns FALSE (0000ms, 0645ms total)
T2B14 000:842 JLINK_IsHalted()  returns FALSE (0001ms, 0646ms total)
T2B14 000:844 JLINK_IsHalted()  returns FALSE (0000ms, 0645ms total)
T2B14 000:845 JLINK_IsHalted()  returns FALSE (0001ms, 0646ms total)
T2B14 000:847 JLINK_IsHalted() -- CPU_ReadMem(2 bytes @ 0x20000000)  returns TRUE (0004ms, 0649ms total)
T2B14 000:851 JLINK_ReadReg(R15 (PC))  returns 0x20000000 (0000ms, 0645ms total)
T2B14 000:851 JLINK_ClrBPEx(BPHandle = 0x00000005)  returns 0x00 (0000ms, 0645ms total)
T2B14 000:851 JLINK_ReadReg(R0)  returns 0x00000000 (0000ms, 0645ms total)
T2B14 000:851 JLINK_WriteMem(0x20000164, 0x0400 Bytes, ...) - Data: 50 46 01 F0 E1 FE 08 B3 0D F1 13 01 76 1E 44 F4 ... -- CPU_WriteMem(1024 bytes @ 0x20000164)  returns 0x400 (0011ms, 0656ms total)
T2B14 000:862 JLINK_WriteReg(R0, 0x08000400)  returns 0x00 (0000ms, 0656ms total)
T2B14 000:862 JLINK_WriteReg(R1, 0x00000400)  returns 0x00 (0000ms, 0656ms total)
T2B14 000:862 JLINK_WriteReg(R2, 0x20000164)  returns 0x00 (0000ms, 0656ms total)
T2B14 000:862 JLINK_WriteReg(R3, 0x00000000)  returns 0x00 (0000ms, 0656ms total)
T2B14 000:862 JLINK_WriteReg(R4, 0x00000000)  returns 0x00 (0000ms, 0656ms total)
T2B14 000:862 JLINK_WriteReg(R5, 0x00000000)  returns 0x00 (0000ms, 0656ms total)
T2B14 000:862 JLINK_WriteReg(R6, 0x00000000)  returns 0x00 (0000ms, 0656ms total)
T2B14 000:862 JLINK_WriteReg(R7, 0x00000000)  returns 0x00 (0000ms, 0656ms total)
T2B14 000:862 JLINK_WriteReg(R8, 0x00000000)  returns 0x00 (0000ms, 0656ms total)
T2B14 000:862 JLINK_WriteReg(R9, 0x20000160)  returns 0x00 (0000ms, 0656ms total)
T2B14 000:862 JLINK_WriteReg(R10, 0x00000000)  returns 0x00 (0000ms, 0656ms total)
T2B14 000:862 JLINK_WriteReg(R11, 0x00000000)  returns 0x00 (0000ms, 0656ms total)
T2B14 000:862 JLINK_WriteReg(R12, 0x00000000)  returns 0x00 (0000ms, 0656ms total)
T2B14 000:862 JLINK_WriteReg(R13 (SP), 0x20001000)  returns 0x00 (0000ms, 0656ms total)
T2B14 000:862 JLINK_WriteReg(R14, 0x20000001)  returns 0x00 (0000ms, 0656ms total)
T2B14 000:862 JLINK_WriteReg(R15 (PC), 0x200000F4)  returns 0x00 (0000ms, 0656ms total)
T2B14 000:862 JLINK_WriteReg(XPSR, 0x01000000)  returns 0x00 (0000ms, 0656ms total)
T2B14 000:862 JLINK_WriteReg(MSP, 0x20001000)  returns 0x00 (0000ms, 0656ms total)
T2B14 000:862 JLINK_WriteReg(PSP, 0x20001000)  returns 0x00 (0000ms, 0656ms total)
T2B14 000:862 JLINK_WriteReg(CFBP, 0x00000000)  returns 0x00 (0000ms, 0656ms total)
T2B14 000:862 JLINK_SetBPEx(Addr = 0x20000000, Type = 0xFFFFFFF2)  returns 0x00000006 (0001ms, 0657ms total)
T2B14 000:863 JLINK_Go() (0001ms, 0658ms total)
T2B14 000:864 JLINK_IsHalted()  returns FALSE (0001ms, 0659ms total)
T2B14 000:874 JLINK_IsHalted()  returns FALSE (0000ms, 0658ms total)
T2B14 000:875 JLINK_IsHalted()  returns FALSE (0001ms, 0659ms total)
T2B14 000:877 JLINK_IsHalted()  returns FALSE (0000ms, 0658ms total)
T2B14 000:878 JLINK_IsHalted()  returns FALSE (0001ms, 0659ms total)
T2B14 000:880 JLINK_IsHalted()  returns FALSE (0000ms, 0658ms total)
T2B14 000:881 JLINK_IsHalted()  returns FALSE (0001ms, 0659ms total)
T2B14 000:883 JLINK_IsHalted()  returns FALSE (0000ms, 0658ms total)
T2B14 000:884 JLINK_IsHalted()  returns FALSE (0001ms, 0659ms total)
T2B14 000:886 JLINK_IsHalted()  returns FALSE (0000ms, 0658ms total)
T2B14 000:887 JLINK_IsHalted()  returns FALSE (0001ms, 0659ms total)
T2B14 000:889 JLINK_IsHalted()  returns FALSE (0000ms, 0658ms total)
T2B14 000:890 JLINK_IsHalted()  returns FALSE (0001ms, 0659ms total)
T2B14 000:892 JLINK_IsHalted()  returns FALSE (0000ms, 0658ms total)
T2B14 000:893 JLINK_IsHalted()  returns FALSE (0001ms, 0659ms total)
T2B14 000:895 JLINK_IsHalted() -- CPU_ReadMem(2 bytes @ 0x20000000)  returns TRUE (0004ms, 0662ms total)
T2B14 000:899 JLINK_ReadReg(R15 (PC))  returns 0x20000000 (0000ms, 0658ms total)
T2B14 000:899 JLINK_ClrBPEx(BPHandle = 0x00000006)  returns 0x00 (0000ms, 0658ms total)
T2B14 000:899 JLINK_ReadReg(R0)  returns 0x00000000 (0000ms, 0658ms total)
T2B14 000:899 JLINK_WriteMem(0x20000164, 0x0400 Bytes, ...) - Data: 71 F1 00 04 04 DB 4F F0 00 44 40 42 64 EB 01 01 ... -- CPU_WriteMem(1024 bytes @ 0x20000164)  returns 0x400 (0011ms, 0669ms total)
T2B14 000:910 JLINK_WriteReg(R0, 0x08000800)  returns 0x00 (0000ms, 0669ms total)
T2B14 000:910 JLINK_WriteReg(R1, 0x00000400)  returns 0x00 (0000ms, 0669ms total)
T2B14 000:910 JLINK_WriteReg(R2, 0x20000164)  returns 0x00 (0000ms, 0669ms total)
T2B14 000:910 JLINK_WriteReg(R3, 0x00000000)  returns 0x00 (0000ms, 0669ms total)
T2B14 000:910 JLINK_WriteReg(R4, 0x00000000)  returns 0x00 (0000ms, 0669ms total)
T2B14 000:910 JLINK_WriteReg(R5, 0x00000000)  returns 0x00 (0000ms, 0669ms total)
T2B14 000:910 JLINK_WriteReg(R6, 0x00000000)  returns 0x00 (0000ms, 0669ms total)
T2B14 000:910 JLINK_WriteReg(R7, 0x00000000)  returns 0x00 (0000ms, 0669ms total)
T2B14 000:910 JLINK_WriteReg(R8, 0x00000000)  returns 0x00 (0000ms, 0669ms total)
T2B14 000:910 JLINK_WriteReg(R9, 0x20000160)  returns 0x00 (0000ms, 0669ms total)
T2B14 000:910 JLINK_WriteReg(R10, 0x00000000)  returns 0x00 (0000ms, 0669ms total)
T2B14 000:911 JLINK_WriteReg(R11, 0x00000000)  returns 0x00 (0000ms, 0669ms total)
T2B14 000:911 JLINK_WriteReg(R12, 0x00000000)  returns 0x00 (0000ms, 0669ms total)
T2B14 000:911 JLINK_WriteReg(R13 (SP), 0x20001000)  returns 0x00 (0000ms, 0669ms total)
T2B14 000:911 JLINK_WriteReg(R14, 0x20000001)  returns 0x00 (0000ms, 0669ms total)
T2B14 000:911 JLINK_WriteReg(R15 (PC), 0x200000F4)  returns 0x00 (0000ms, 0669ms total)
T2B14 000:911 JLINK_WriteReg(XPSR, 0x01000000)  returns 0x00 (0000ms, 0669ms total)
T2B14 000:911 JLINK_WriteReg(MSP, 0x20001000)  returns 0x00 (0000ms, 0669ms total)
T2B14 000:911 JLINK_WriteReg(PSP, 0x20001000)  returns 0x00 (0000ms, 0669ms total)
T2B14 000:911 JLINK_WriteReg(CFBP, 0x00000000)  returns 0x00 (0000ms, 0669ms total)
T2B14 000:911 JLINK_SetBPEx(Addr = 0x20000000, Type = 0xFFFFFFF2)  returns 0x00000007 (0000ms, 0669ms total)
T2B14 000:911 JLINK_Go() (0001ms, 0670ms total)
T2B14 000:912 JLINK_IsHalted()  returns FALSE (0001ms, 0671ms total)
T2B14 000:914 JLINK_IsHalted()  returns FALSE (0000ms, 0670ms total)
T2B14 000:915 JLINK_IsHalted()  returns FALSE (0000ms, 0670ms total)
T2B14 000:916 JLINK_IsHalted()  returns FALSE (0001ms, 0671ms total)
T2B14 000:918 JLINK_IsHalted()  returns FALSE (0000ms, 0670ms total)
T2B14 000:919 JLINK_IsHalted()  returns FALSE (0001ms, 0671ms total)
T2B14 000:921 JLINK_IsHalted()  returns FALSE (0000ms, 0670ms total)
T2B14 000:922 JLINK_IsHalted()  returns FALSE (0001ms, 0671ms total)
T2B14 000:924 JLINK_IsHalted()  returns FALSE (0000ms, 0670ms total)
T2B14 000:925 JLINK_IsHalted()  returns FALSE (0001ms, 0671ms total)
T2B14 000:929 JLINK_IsHalted()  returns FALSE (0000ms, 0670ms total)
T2B14 000:930 JLINK_IsHalted()  returns FALSE (0001ms, 0671ms total)
T2B14 000:932 JLINK_IsHalted()  returns FALSE (0000ms, 0670ms total)
T2B14 000:933 JLINK_IsHalted()  returns FALSE (0001ms, 0671ms total)
T2B14 000:935 JLINK_IsHalted()  returns FALSE (0000ms, 0670ms total)
T2B14 000:936 JLINK_IsHalted()  returns FALSE (0001ms, 0671ms total)
T2B14 000:938 JLINK_IsHalted()  returns FALSE (0000ms, 0670ms total)
T2B14 000:939 JLINK_IsHalted()  returns FALSE (0001ms, 0671ms total)
T2B14 000:941 JLINK_IsHalted()  returns FALSE (0000ms, 0670ms total)
T2B14 000:942 JLINK_IsHalted()  returns FALSE (0001ms, 0671ms total)
T2B14 000:944 JLINK_IsHalted() -- CPU_ReadMem(2 bytes @ 0x20000000)  returns TRUE (0004ms, 0674ms total)
T2B14 000:948 JLINK_ReadReg(R15 (PC))  returns 0x20000000 (0000ms, 0670ms total)
T2B14 000:948 JLINK_ClrBPEx(BPHandle = 0x00000007)  returns 0x00 (0000ms, 0670ms total)
T2B14 000:948 JLINK_ReadReg(R0)  returns 0x00000000 (0000ms, 0670ms total)
T2B14 000:948 JLINK_WriteMem(0x20000164, 0x0400 Bytes, ...) - Data: 04 F0 00 4B 21 F0 00 45 14 46 4F F0 00 0A 23 F0 ... -- CPU_WriteMem(1024 bytes @ 0x20000164)  returns 0x400 (0011ms, 0681ms total)
T2B14 000:959 JLINK_WriteReg(R0, 0x08000C00)  returns 0x00 (0000ms, 0681ms total)
T2B14 000:960 JLINK_WriteReg(R1, 0x00000400)  returns 0x00 (0000ms, 0682ms total)
T2B14 000:960 JLINK_WriteReg(R2, 0x20000164)  returns 0x00 (0000ms, 0682ms total)
T2B14 000:960 JLINK_WriteReg(R3, 0x00000000)  returns 0x00 (0000ms, 0682ms total)
T2B14 000:960 JLINK_WriteReg(R4, 0x00000000)  returns 0x00 (0000ms, 0682ms total)
T2B14 000:960 JLINK_WriteReg(R5, 0x00000000)  returns 0x00 (0000ms, 0682ms total)
T2B14 000:960 JLINK_WriteReg(R6, 0x00000000)  returns 0x00 (0000ms, 0682ms total)
T2B14 000:960 JLINK_WriteReg(R7, 0x00000000)  returns 0x00 (0000ms, 0682ms total)
T2B14 000:960 JLINK_WriteReg(R8, 0x00000000)  returns 0x00 (0000ms, 0682ms total)
T2B14 000:960 JLINK_WriteReg(R9, 0x20000160)  returns 0x00 (0000ms, 0682ms total)
T2B14 000:960 JLINK_WriteReg(R10, 0x00000000)  returns 0x00 (0000ms, 0682ms total)
T2B14 000:960 JLINK_WriteReg(R11, 0x00000000)  returns 0x00 (0000ms, 0682ms total)
T2B14 000:960 JLINK_WriteReg(R12, 0x00000000)  returns 0x00 (0000ms, 0682ms total)
T2B14 000:960 JLINK_WriteReg(R13 (SP), 0x20001000)  returns 0x00 (0000ms, 0682ms total)
T2B14 000:960 JLINK_WriteReg(R14, 0x20000001)  returns 0x00 (0000ms, 0682ms total)
T2B14 000:960 JLINK_WriteReg(R15 (PC), 0x200000F4)  returns 0x00 (0000ms, 0682ms total)
T2B14 000:960 JLINK_WriteReg(XPSR, 0x01000000)  returns 0x00 (0000ms, 0682ms total)
T2B14 000:960 JLINK_WriteReg(MSP, 0x20001000)  returns 0x00 (0000ms, 0682ms total)
T2B14 000:960 JLINK_WriteReg(PSP, 0x20001000)  returns 0x00 (0000ms, 0682ms total)
T2B14 000:960 JLINK_WriteReg(CFBP, 0x00000000)  returns 0x00 (0000ms, 0682ms total)
T2B14 000:960 JLINK_SetBPEx(Addr = 0x20000000, Type = 0xFFFFFFF2)  returns 0x00000008 (0000ms, 0682ms total)
T2B14 000:960 JLINK_Go() (0001ms, 0683ms total)
T2B14 000:961 JLINK_IsHalted()  returns FALSE (0001ms, 0684ms total)
T2B14 000:970 JLINK_IsHalted()  returns FALSE (0000ms, 0683ms total)
T2B14 000:971 JLINK_IsHalted()  returns FALSE (0001ms, 0684ms total)
T2B14 000:973 JLINK_IsHalted()  returns FALSE (0000ms, 0683ms total)
T2B14 000:974 JLINK_IsHalted()  returns FALSE (0001ms, 0684ms total)
T2B14 000:976 JLINK_IsHalted()  returns FALSE (0000ms, 0683ms total)
T2B14 000:977 JLINK_IsHalted()  returns FALSE (0001ms, 0684ms total)
T2B14 000:979 JLINK_IsHalted()  returns FALSE (0000ms, 0683ms total)
T2B14 000:980 JLINK_IsHalted()  returns FALSE (0001ms, 0684ms total)
T2B14 000:982 JLINK_IsHalted()  returns FALSE (0000ms, 0683ms total)
T2B14 000:983 JLINK_IsHalted()  returns FALSE (0001ms, 0684ms total)
T2B14 000:985 JLINK_IsHalted()  returns FALSE (0000ms, 0683ms total)
T2B14 000:986 JLINK_IsHalted()  returns FALSE (0001ms, 0684ms total)
T2B14 000:988 JLINK_IsHalted()  returns FALSE (0000ms, 0683ms total)
T2B14 000:989 JLINK_IsHalted()  returns FALSE (0001ms, 0684ms total)
T2B14 000:992 JLINK_IsHalted()  returns FALSE (0000ms, 0683ms total)
T2B14 000:993 JLINK_IsHalted() -- CPU_ReadMem(2 bytes @ 0x20000000)  returns TRUE (0004ms, 0687ms total)
T2B14 000:997 JLINK_ReadReg(R15 (PC))  returns 0x20000000 (0000ms, 0683ms total)
T2B14 000:997 JLINK_ClrBPEx(BPHandle = 0x00000008)  returns 0x00 (0000ms, 0683ms total)
T2B14 000:997 JLINK_ReadReg(R0)  returns 0x00000000 (0000ms, 0683ms total)
T2B14 000:998 JLINK_WriteMem(0x20000164, 0x0400 Bytes, ...) - Data: 0A EB 83 01 22 F0 1F 02 82 1A 01 20 0B 68 90 40 ... -- CPU_WriteMem(1024 bytes @ 0x20000164)  returns 0x400 (0011ms, 0694ms total)
T2B14 001:009 JLINK_WriteReg(R0, 0x08001000)  returns 0x00 (0000ms, 0694ms total)
T2B14 001:009 JLINK_WriteReg(R1, 0x00000400)  returns 0x00 (0000ms, 0694ms total)
T2B14 001:009 JLINK_WriteReg(R2, 0x20000164)  returns 0x00 (0000ms, 0694ms total)
T2B14 001:009 JLINK_WriteReg(R3, 0x00000000)  returns 0x00 (0000ms, 0694ms total)
T2B14 001:009 JLINK_WriteReg(R4, 0x00000000)  returns 0x00 (0000ms, 0694ms total)
T2B14 001:009 JLINK_WriteReg(R5, 0x00000000)  returns 0x00 (0000ms, 0694ms total)
T2B14 001:009 JLINK_WriteReg(R6, 0x00000000)  returns 0x00 (0000ms, 0694ms total)
T2B14 001:009 JLINK_WriteReg(R7, 0x00000000)  returns 0x00 (0000ms, 0694ms total)
T2B14 001:009 JLINK_WriteReg(R8, 0x00000000)  returns 0x00 (0000ms, 0694ms total)
T2B14 001:009 JLINK_WriteReg(R9, 0x20000160)  returns 0x00 (0000ms, 0694ms total)
T2B14 001:009 JLINK_WriteReg(R10, 0x00000000)  returns 0x00 (0000ms, 0694ms total)
T2B14 001:009 JLINK_WriteReg(R11, 0x00000000)  returns 0x00 (0000ms, 0694ms total)
T2B14 001:009 JLINK_WriteReg(R12, 0x00000000)  returns 0x00 (0000ms, 0694ms total)
T2B14 001:009 JLINK_WriteReg(R13 (SP), 0x20001000)  returns 0x00 (0000ms, 0694ms total)
T2B14 001:009 JLINK_WriteReg(R14, 0x20000001)  returns 0x00 (0000ms, 0694ms total)
T2B14 001:009 JLINK_WriteReg(R15 (PC), 0x200000F4)  returns 0x00 (0000ms, 0694ms total)
T2B14 001:009 JLINK_WriteReg(XPSR, 0x01000000)  returns 0x00 (0000ms, 0694ms total)
T2B14 001:009 JLINK_WriteReg(MSP, 0x20001000)  returns 0x00 (0000ms, 0694ms total)
T2B14 001:009 JLINK_WriteReg(PSP, 0x20001000)  returns 0x00 (0000ms, 0694ms total)
T2B14 001:009 JLINK_WriteReg(CFBP, 0x00000000)  returns 0x00 (0000ms, 0694ms total)
T2B14 001:009 JLINK_SetBPEx(Addr = 0x20000000, Type = 0xFFFFFFF2)  returns 0x00000009 (0000ms, 0694ms total)
T2B14 001:009 JLINK_Go() (0002ms, 0696ms total)
T2B14 001:011 JLINK_IsHalted()  returns FALSE (0000ms, 0696ms total)
T2B14 001:012 JLINK_IsHalted()  returns FALSE (0001ms, 0697ms total)
T2B14 001:014 JLINK_IsHalted()  returns FALSE (0000ms, 0696ms total)
T2B14 001:015 JLINK_IsHalted()  returns FALSE (0001ms, 0697ms total)
T2B14 001:017 JLINK_IsHalted()  returns FALSE (0000ms, 0696ms total)
T2B14 001:018 JLINK_IsHalted()  returns FALSE (0001ms, 0697ms total)
T2B14 001:020 JLINK_IsHalted()  returns FALSE (0000ms, 0696ms total)
T2B14 001:021 JLINK_IsHalted()  returns FALSE (0001ms, 0697ms total)
T2B14 001:023 JLINK_IsHalted()  returns FALSE (0000ms, 0696ms total)
T2B14 001:024 JLINK_IsHalted()  returns FALSE (0001ms, 0697ms total)
T2B14 001:026 JLINK_IsHalted()  returns FALSE (0000ms, 0696ms total)
T2B14 001:027 JLINK_IsHalted()  returns FALSE (0001ms, 0697ms total)
T2B14 001:029 JLINK_IsHalted()  returns FALSE (0000ms, 0696ms total)
T2B14 001:030 JLINK_IsHalted()  returns FALSE (0001ms, 0697ms total)
T2B14 001:032 JLINK_IsHalted()  returns FALSE (0000ms, 0696ms total)
T2B14 001:033 JLINK_IsHalted()  returns FALSE (0001ms, 0697ms total)
T2B14 001:035 JLINK_IsHalted()  returns FALSE (0000ms, 0696ms total)
T2B14 001:039 JLINK_IsHalted()  returns FALSE (0001ms, 0697ms total)
T2B14 001:041 JLINK_IsHalted()  returns FALSE (0000ms, 0696ms total)
T2B14 001:042 JLINK_IsHalted() -- CPU_ReadMem(2 bytes @ 0x20000000)  returns TRUE (0005ms, 0701ms total)
T2B14 001:047 JLINK_ReadReg(R15 (PC))  returns 0x20000000 (0000ms, 0696ms total)
T2B14 001:047 JLINK_ClrBPEx(BPHandle = 0x00000009)  returns 0x00 (0000ms, 0696ms total)
T2B14 001:047 JLINK_ReadReg(R0)  returns 0x00000000 (0000ms, 0696ms total)
T2B14 001:047 JLINK_WriteMem(0x20000164, 0x0400 Bytes, ...) - Data: 05 4D 6D 68 05 F4 40 41 89 0B 07 4D 6B 5C C5 68 ... -- CPU_WriteMem(1024 bytes @ 0x20000164)  returns 0x400 (0011ms, 0707ms total)
T2B14 001:058 JLINK_WriteReg(R0, 0x08001400)  returns 0x00 (0000ms, 0707ms total)
T2B14 001:058 JLINK_WriteReg(R1, 0x00000400)  returns 0x00 (0000ms, 0707ms total)
T2B14 001:058 JLINK_WriteReg(R2, 0x20000164)  returns 0x00 (0000ms, 0707ms total)
T2B14 001:058 JLINK_WriteReg(R3, 0x00000000)  returns 0x00 (0000ms, 0707ms total)
T2B14 001:058 JLINK_WriteReg(R4, 0x00000000)  returns 0x00 (0000ms, 0707ms total)
T2B14 001:058 JLINK_WriteReg(R5, 0x00000000)  returns 0x00 (0000ms, 0707ms total)
T2B14 001:058 JLINK_WriteReg(R6, 0x00000000)  returns 0x00 (0000ms, 0707ms total)
T2B14 001:058 JLINK_WriteReg(R7, 0x00000000)  returns 0x00 (0000ms, 0707ms total)
T2B14 001:058 JLINK_WriteReg(R8, 0x00000000)  returns 0x00 (0000ms, 0707ms total)
T2B14 001:058 JLINK_WriteReg(R9, 0x20000160)  returns 0x00 (0000ms, 0707ms total)
T2B14 001:058 JLINK_WriteReg(R10, 0x00000000)  returns 0x00 (0000ms, 0707ms total)
T2B14 001:058 JLINK_WriteReg(R11, 0x00000000)  returns 0x00 (0000ms, 0707ms total)
T2B14 001:058 JLINK_WriteReg(R12, 0x00000000)  returns 0x00 (0000ms, 0707ms total)
T2B14 001:058 JLINK_WriteReg(R13 (SP), 0x20001000)  returns 0x00 (0000ms, 0707ms total)
T2B14 001:058 JLINK_WriteReg(R14, 0x20000001)  returns 0x00 (0000ms, 0707ms total)
T2B14 001:058 JLINK_WriteReg(R15 (PC), 0x200000F4)  returns 0x00 (0000ms, 0707ms total)
T2B14 001:058 JLINK_WriteReg(XPSR, 0x01000000)  returns 0x00 (0000ms, 0707ms total)
T2B14 001:058 JLINK_WriteReg(MSP, 0x20001000)  returns 0x00 (0000ms, 0707ms total)
T2B14 001:058 JLINK_WriteReg(PSP, 0x20001000)  returns 0x00 (0000ms, 0707ms total)
T2B14 001:058 JLINK_WriteReg(CFBP, 0x00000000)  returns 0x00 (0000ms, 0707ms total)
T2B14 001:058 JLINK_SetBPEx(Addr = 0x20000000, Type = 0xFFFFFFF2)  returns 0x0000000A (0000ms, 0707ms total)
T2B14 001:058 JLINK_Go() (0002ms, 0709ms total)
T2B14 001:060 JLINK_IsHalted()  returns FALSE (0000ms, 0709ms total)
T2B14 001:061 JLINK_IsHalted()  returns FALSE (0001ms, 0710ms total)
T2B14 001:063 JLINK_IsHalted()  returns FALSE (0000ms, 0709ms total)
T2B14 001:064 JLINK_IsHalted()  returns FALSE (0001ms, 0710ms total)
T2B14 001:066 JLINK_IsHalted()  returns FALSE (0000ms, 0709ms total)
T2B14 001:067 JLINK_IsHalted()  returns FALSE (0001ms, 0710ms total)
T2B14 001:076 JLINK_IsHalted()  returns FALSE (0001ms, 0710ms total)
T2B14 001:078 JLINK_IsHalted()  returns FALSE (0000ms, 0709ms total)
T2B14 001:079 JLINK_IsHalted()  returns FALSE (0001ms, 0710ms total)
T2B14 001:081 JLINK_IsHalted()  returns FALSE (0000ms, 0709ms total)
T2B14 001:082 JLINK_IsHalted()  returns FALSE (0001ms, 0710ms total)
T2B14 001:084 JLINK_IsHalted()  returns FALSE (0000ms, 0709ms total)
T2B14 001:085 JLINK_IsHalted()  returns FALSE (0001ms, 0710ms total)
T2B14 001:087 JLINK_IsHalted()  returns FALSE (0000ms, 0709ms total)
T2B14 001:088 JLINK_IsHalted()  returns FALSE (0001ms, 0710ms total)
T2B14 001:090 JLINK_IsHalted()  returns FALSE (0000ms, 0709ms total)
T2B14 001:091 JLINK_IsHalted() -- CPU_ReadMem(2 bytes @ 0x20000000)  returns TRUE (0004ms, 0713ms total)
T2B14 001:095 JLINK_ReadReg(R15 (PC))  returns 0x20000000 (0000ms, 0709ms total)
T2B14 001:095 JLINK_ClrBPEx(BPHandle = 0x0000000A)  returns 0x00 (0000ms, 0709ms total)
T2B14 001:095 JLINK_ReadReg(R0)  returns 0x00000000 (0000ms, 0709ms total)
T2B14 001:096 JLINK_WriteMem(0x20000164, 0x0400 Bytes, ...) - Data: 46 00 00 20 3F 00 00 20 48 00 00 20 CA 43 02 82 ... -- CPU_WriteMem(1024 bytes @ 0x20000164)  returns 0x400 (0011ms, 0720ms total)
T2B14 001:107 JLINK_WriteReg(R0, 0x08001800)  returns 0x00 (0000ms, 0720ms total)
T2B14 001:107 JLINK_WriteReg(R1, 0x00000400)  returns 0x00 (0000ms, 0720ms total)
T2B14 001:107 JLINK_WriteReg(R2, 0x20000164)  returns 0x00 (0000ms, 0720ms total)
T2B14 001:107 JLINK_WriteReg(R3, 0x00000000)  returns 0x00 (0000ms, 0720ms total)
T2B14 001:107 JLINK_WriteReg(R4, 0x00000000)  returns 0x00 (0000ms, 0720ms total)
T2B14 001:107 JLINK_WriteReg(R5, 0x00000000)  returns 0x00 (0000ms, 0720ms total)
T2B14 001:107 JLINK_WriteReg(R6, 0x00000000)  returns 0x00 (0000ms, 0720ms total)
T2B14 001:107 JLINK_WriteReg(R7, 0x00000000)  returns 0x00 (0000ms, 0720ms total)
T2B14 001:107 JLINK_WriteReg(R8, 0x00000000)  returns 0x00 (0000ms, 0720ms total)
T2B14 001:107 JLINK_WriteReg(R9, 0x20000160)  returns 0x00 (0000ms, 0720ms total)
T2B14 001:107 JLINK_WriteReg(R10, 0x00000000)  returns 0x00 (0000ms, 0720ms total)
T2B14 001:107 JLINK_WriteReg(R11, 0x00000000)  returns 0x00 (0000ms, 0720ms total)
T2B14 001:107 JLINK_WriteReg(R12, 0x00000000)  returns 0x00 (0000ms, 0720ms total)
T2B14 001:107 JLINK_WriteReg(R13 (SP), 0x20001000)  returns 0x00 (0000ms, 0720ms total)
T2B14 001:107 JLINK_WriteReg(R14, 0x20000001)  returns 0x00 (0000ms, 0720ms total)
T2B14 001:107 JLINK_WriteReg(R15 (PC), 0x200000F4)  returns 0x00 (0000ms, 0720ms total)
T2B14 001:107 JLINK_WriteReg(XPSR, 0x01000000)  returns 0x00 (0000ms, 0720ms total)
T2B14 001:107 JLINK_WriteReg(MSP, 0x20001000)  returns 0x00 (0000ms, 0720ms total)
T2B14 001:107 JLINK_WriteReg(PSP, 0x20001000)  returns 0x00 (0000ms, 0720ms total)
T2B14 001:107 JLINK_WriteReg(CFBP, 0x00000000)  returns 0x00 (0000ms, 0720ms total)
T2B14 001:107 JLINK_SetBPEx(Addr = 0x20000000, Type = 0xFFFFFFF2)  returns 0x0000000B (0000ms, 0720ms total)
T2B14 001:107 JLINK_Go() (0002ms, 0722ms total)
T2B14 001:109 JLINK_IsHalted()  returns FALSE (0001ms, 0723ms total)
T2B14 001:111 JLINK_IsHalted()  returns FALSE (0000ms, 0722ms total)
T2B14 001:112 JLINK_IsHalted()  returns FALSE (0001ms, 0723ms total)
T2B14 001:114 JLINK_IsHalted()  returns FALSE (0000ms, 0722ms total)
T2B14 001:115 JLINK_IsHalted()  returns FALSE (0001ms, 0723ms total)
T2B14 001:117 JLINK_IsHalted()  returns FALSE (0000ms, 0722ms total)
T2B14 001:118 JLINK_IsHalted()  returns FALSE (0001ms, 0723ms total)
T2B14 001:120 JLINK_IsHalted()  returns FALSE (0000ms, 0722ms total)
T2B14 001:121 JLINK_IsHalted()  returns FALSE (0001ms, 0723ms total)
T2B14 001:123 JLINK_IsHalted()  returns FALSE (0000ms, 0722ms total)
T2B14 001:124 JLINK_IsHalted()  returns FALSE (0001ms, 0723ms total)
T2B14 001:126 JLINK_IsHalted()  returns FALSE (0000ms, 0722ms total)
T2B14 001:127 JLINK_IsHalted()  returns FALSE (0001ms, 0723ms total)
T2B14 001:129 JLINK_IsHalted()  returns FALSE (0000ms, 0722ms total)
T2B14 001:130 JLINK_IsHalted()  returns FALSE (0001ms, 0723ms total)
T2B14 001:132 JLINK_IsHalted()  returns FALSE (0000ms, 0722ms total)
T2B14 001:133 JLINK_IsHalted()  returns FALSE (0001ms, 0723ms total)
T2B14 001:135 JLINK_IsHalted()  returns FALSE (0000ms, 0722ms total)
T2B14 001:136 JLINK_IsHalted()  returns FALSE (0001ms, 0723ms total)
T2B14 001:138 JLINK_IsHalted()  returns FALSE (0000ms, 0722ms total)
T2B14 001:139 JLINK_IsHalted()  returns FALSE (0001ms, 0723ms total)
T2B14 001:141 JLINK_IsHalted() -- CPU_ReadMem(2 bytes @ 0x20000000)  returns TRUE (0004ms, 0726ms total)
T2B14 001:145 JLINK_ReadReg(R15 (PC))  returns 0x20000000 (0000ms, 0722ms total)
T2B14 001:145 JLINK_ClrBPEx(BPHandle = 0x0000000B)  returns 0x00 (0000ms, 0722ms total)
T2B14 001:145 JLINK_ReadReg(R0)  returns 0x00000000 (0000ms, 0722ms total)
T2B14 001:145 JLINK_WriteMem(0x20000164, 0x0400 Bytes, ...) - Data: FF 73 1A 40 82 81 70 47 10 B5 04 46 20 48 84 42 ... -- CPU_WriteMem(1024 bytes @ 0x20000164)  returns 0x400 (0011ms, 0733ms total)
T2B14 001:156 JLINK_WriteReg(R0, 0x08001C00)  returns 0x00 (0000ms, 0733ms total)
T2B14 001:156 JLINK_WriteReg(R1, 0x00000400)  returns 0x00 (0000ms, 0733ms total)
T2B14 001:156 JLINK_WriteReg(R2, 0x20000164)  returns 0x00 (0000ms, 0733ms total)
T2B14 001:156 JLINK_WriteReg(R3, 0x00000000)  returns 0x00 (0000ms, 0733ms total)
T2B14 001:156 JLINK_WriteReg(R4, 0x00000000)  returns 0x00 (0000ms, 0733ms total)
T2B14 001:156 JLINK_WriteReg(R5, 0x00000000)  returns 0x00 (0000ms, 0733ms total)
T2B14 001:156 JLINK_WriteReg(R6, 0x00000000)  returns 0x00 (0000ms, 0733ms total)
T2B14 001:156 JLINK_WriteReg(R7, 0x00000000)  returns 0x00 (0000ms, 0733ms total)
T2B14 001:156 JLINK_WriteReg(R8, 0x00000000)  returns 0x00 (0000ms, 0733ms total)
T2B14 001:156 JLINK_WriteReg(R9, 0x20000160)  returns 0x00 (0000ms, 0733ms total)
T2B14 001:156 JLINK_WriteReg(R10, 0x00000000)  returns 0x00 (0000ms, 0733ms total)
T2B14 001:156 JLINK_WriteReg(R11, 0x00000000)  returns 0x00 (0000ms, 0733ms total)
T2B14 001:157 JLINK_WriteReg(R12, 0x00000000)  returns 0x00 (0000ms, 0734ms total)
T2B14 001:157 JLINK_WriteReg(R13 (SP), 0x20001000)  returns 0x00 (0000ms, 0734ms total)
T2B14 001:157 JLINK_WriteReg(R14, 0x20000001)  returns 0x00 (0000ms, 0734ms total)
T2B14 001:157 JLINK_WriteReg(R15 (PC), 0x200000F4)  returns 0x00 (0000ms, 0734ms total)
T2B14 001:157 JLINK_WriteReg(XPSR, 0x01000000)  returns 0x00 (0000ms, 0734ms total)
T2B14 001:157 JLINK_WriteReg(MSP, 0x20001000)  returns 0x00 (0000ms, 0734ms total)
T2B14 001:157 JLINK_WriteReg(PSP, 0x20001000)  returns 0x00 (0000ms, 0734ms total)
T2B14 001:157 JLINK_WriteReg(CFBP, 0x00000000)  returns 0x00 (0000ms, 0734ms total)
T2B14 001:157 JLINK_SetBPEx(Addr = 0x20000000, Type = 0xFFFFFFF2)  returns 0x0000000C (0000ms, 0734ms total)
T2B14 001:157 JLINK_Go() (0001ms, 0735ms total)
T2B14 001:158 JLINK_IsHalted()  returns FALSE (0001ms, 0736ms total)
T2B14 001:161 JLINK_IsHalted()  returns FALSE (0000ms, 0735ms total)
T2B14 001:162 JLINK_IsHalted()  returns FALSE (0001ms, 0736ms total)
T2B14 001:164 JLINK_IsHalted()  returns FALSE (0001ms, 0736ms total)
T2B14 001:166 JLINK_IsHalted()  returns FALSE (0000ms, 0735ms total)
T2B14 001:167 JLINK_IsHalted()  returns FALSE (0001ms, 0736ms total)
T2B14 001:169 JLINK_IsHalted()  returns FALSE (0000ms, 0735ms total)
T2B14 001:170 JLINK_IsHalted()  returns FALSE (0001ms, 0736ms total)
T2B14 001:172 JLINK_IsHalted()  returns FALSE (0000ms, 0735ms total)
T2B14 001:173 JLINK_IsHalted()  returns FALSE (0001ms, 0736ms total)
T2B14 001:175 JLINK_IsHalted()  returns FALSE (0000ms, 0735ms total)
T2B14 001:184 JLINK_IsHalted()  returns FALSE (0000ms, 0735ms total)
T2B14 001:185 JLINK_IsHalted()  returns FALSE (0001ms, 0736ms total)
T2B14 001:187 JLINK_IsHalted()  returns FALSE (0000ms, 0735ms total)
T2B14 001:188 JLINK_IsHalted()  returns FALSE (0001ms, 0736ms total)
T2B14 001:190 JLINK_IsHalted() -- CPU_ReadMem(2 bytes @ 0x20000000)  returns TRUE (0004ms, 0739ms total)
T2B14 001:194 JLINK_ReadReg(R15 (PC))  returns 0x20000000 (0000ms, 0735ms total)
T2B14 001:194 JLINK_ClrBPEx(BPHandle = 0x0000000C)  returns 0x00 (0000ms, 0735ms total)
T2B14 001:194 JLINK_ReadReg(R0)  returns 0x00000000 (0000ms, 0735ms total)
T2B14 001:194 JLINK_WriteMem(0x20000164, 0x0400 Bytes, ...) - Data: FE F7 B2 F8 38 22 0D F2 B4 41 68 46 FE F7 AC F8 ... -- CPU_WriteMem(1024 bytes @ 0x20000164)  returns 0x400 (0011ms, 0746ms total)
T2B14 001:205 JLINK_WriteReg(R0, 0x08002000)  returns 0x00 (0001ms, 0747ms total)
T2B14 001:206 JLINK_WriteReg(R1, 0x00000400)  returns 0x00 (0000ms, 0747ms total)
T2B14 001:206 JLINK_WriteReg(R2, 0x20000164)  returns 0x00 (0000ms, 0747ms total)
T2B14 001:206 JLINK_WriteReg(R3, 0x00000000)  returns 0x00 (0000ms, 0747ms total)
T2B14 001:206 JLINK_WriteReg(R4, 0x00000000)  returns 0x00 (0000ms, 0747ms total)
T2B14 001:206 JLINK_WriteReg(R5, 0x00000000)  returns 0x00 (0000ms, 0747ms total)
T2B14 001:206 JLINK_WriteReg(R6, 0x00000000)  returns 0x00 (0000ms, 0747ms total)
T2B14 001:206 JLINK_WriteReg(R7, 0x00000000)  returns 0x00 (0000ms, 0747ms total)
T2B14 001:206 JLINK_WriteReg(R8, 0x00000000)  returns 0x00 (0000ms, 0747ms total)
T2B14 001:206 JLINK_WriteReg(R9, 0x20000160)  returns 0x00 (0000ms, 0747ms total)
T2B14 001:206 JLINK_WriteReg(R10, 0x00000000)  returns 0x00 (0000ms, 0747ms total)
T2B14 001:206 JLINK_WriteReg(R11, 0x00000000)  returns 0x00 (0000ms, 0747ms total)
T2B14 001:206 JLINK_WriteReg(R12, 0x00000000)  returns 0x00 (0000ms, 0747ms total)
T2B14 001:206 JLINK_WriteReg(R13 (SP), 0x20001000)  returns 0x00 (0000ms, 0747ms total)
T2B14 001:206 JLINK_WriteReg(R14, 0x20000001)  returns 0x00 (0000ms, 0747ms total)
T2B14 001:206 JLINK_WriteReg(R15 (PC), 0x200000F4)  returns 0x00 (0000ms, 0747ms total)
T2B14 001:206 JLINK_WriteReg(XPSR, 0x01000000)  returns 0x00 (0000ms, 0747ms total)
T2B14 001:206 JLINK_WriteReg(MSP, 0x20001000)  returns 0x00 (0000ms, 0747ms total)
T2B14 001:206 JLINK_WriteReg(PSP, 0x20001000)  returns 0x00 (0000ms, 0747ms total)
T2B14 001:206 JLINK_WriteReg(CFBP, 0x00000000)  returns 0x00 (0000ms, 0747ms total)
T2B14 001:206 JLINK_SetBPEx(Addr = 0x20000000, Type = 0xFFFFFFF2)  returns 0x0000000D (0000ms, 0747ms total)
T2B14 001:206 JLINK_Go() (0001ms, 0748ms total)
T2B14 001:207 JLINK_IsHalted()  returns FALSE (0001ms, 0749ms total)
T2B14 001:209 JLINK_IsHalted()  returns FALSE (0000ms, 0748ms total)
T2B14 001:210 JLINK_IsHalted()  returns FALSE (0001ms, 0749ms total)
T2B14 001:212 JLINK_IsHalted()  returns FALSE (0000ms, 0748ms total)
T2B14 001:213 JLINK_IsHalted()  returns FALSE (0001ms, 0749ms total)
T2B14 001:215 JLINK_IsHalted()  returns FALSE (0000ms, 0748ms total)
T2B14 001:216 JLINK_IsHalted()  returns FALSE (0001ms, 0749ms total)
T2B14 001:218 JLINK_IsHalted()  returns FALSE (0000ms, 0748ms total)
T2B14 001:219 JLINK_IsHalted()  returns FALSE (0001ms, 0749ms total)
T2B14 001:221 JLINK_IsHalted()  returns FALSE (0000ms, 0748ms total)
T2B14 001:222 JLINK_IsHalted()  returns FALSE (0001ms, 0749ms total)
